T2604 000:015.905   SEGGER J-Link V6.86 Log File
T2604 000:016.166   DLL Compiled: Sep 24 2020 17:31:31
T2604 000:016.182   Logging started @ 2022-01-03 08:22
T2604 000:016.196 - 16.204ms
T2604 000:016.222 JLINK_SetWarnOutHandler(...)
T2604 000:016.240 - 0.025ms
T2604 000:016.259 JLINK_OpenEx(...)
T2604 000:020.063   Firmware: J-Link ARM V8 compiled Nov 28 2014 13:44:46
T2604 000:023.549   Hardware: V8.00
T2604 000:023.624   S/N: 4294967295
T2604 000:023.647   OEM: SEGGER
T2604 000:023.668   Feature(s): RDI,FlashDL,FlashBP,JFlash,GDB
T2604 000:025.528   TELNET listener socket opened on port 19021
T2604 000:025.780   WEBSRV Starting webserver
T2604 000:025.998   WEBSRV Webserver running on local port 19080
T2604 000:026.021 - 9.768ms returns "O.K."
T2604 000:026.051 JLINK_GetEmuCaps()
T2604 000:026.063 - 0.017ms returns 0xB9FF7BBF
T2604 000:026.082 JLINK_TIF_GetAvailable(...)
T2604 000:026.361 - 0.298ms
T2604 000:026.402 JLINK_SetErrorOutHandler(...)
T2604 000:026.418 - 0.023ms
T2604 000:026.463 JLINK_ExecCommand("ProjectFile = "F:\2.FIRMWARE\9.EN81-20\V4.0C_210904\G-664C V4.0C\Debug\JLinkSettings.ini"", ...). 
T2604 000:042.643 - 16.232ms returns 0x00
T2604 000:050.607 JLINK_ExecCommand("Device = LPC1768", ...). 
T2604 000:057.265   Device "LPC1768" selected.
T2604 000:057.612 - 6.985ms returns 0x00
T2604 000:057.647 JLINK_GetHardwareVersion()
T2604 000:057.657 - 0.014ms returns 80000
T2604 000:057.710 JLINK_GetDLLVersion()
T2604 000:057.723 - 0.017ms returns 68600
T2604 000:057.733 JLINK_GetOEMString(...)
T2604 000:057.742 JLINK_GetFirmwareString(...)
T2604 000:057.749 - 0.010ms
T2604 000:065.910 JLINK_GetDLLVersion()
T2604 000:065.933 - 0.026ms returns 68600
T2604 000:065.943 JLINK_GetCompileDateTime()
T2604 000:065.949 - 0.009ms
T2604 000:067.927 JLINK_GetFirmwareString(...)
T2604 000:067.944 - 0.020ms
T2604 000:069.816 JLINK_GetHardwareVersion()
T2604 000:069.836 - 0.023ms returns 80000
T2604 000:071.740 JLINK_GetSN()
T2604 000:071.754 - 0.017ms returns -1
T2604 000:071.763 JLINK_GetOEMString(...)
T2604 000:075.108 JLINK_TIF_Select(JLINKARM_TIF_SWD)
T2604 000:076.314 - 1.214ms returns 0x00
T2604 000:076.331 JLINK_HasError()
T2604 000:076.347 JLINK_SetSpeed(5000)
T2604 000:076.500 - 0.161ms
T2604 000:076.517 JLINK_GetId()
T2604 000:079.843   Found SW-DP with ID 0x2BA01477
T2604 000:085.193   Old FW that does not support reading DPIDR via DAP jobs
T2604 000:092.870   Unknown DP version. Assuming DPv0
T2604 000:094.863   Scanning AP map to find all available APs
T2604 000:102.262   AP[1]: Stopped AP scan as end of AP map has been reached
T2604 000:104.067   AP[0]: AHB-AP (IDR: 0x24770011)
T2604 000:106.091   Iterating through AP map to find AHB-AP to use
T2604 000:114.936   AP[0]: Core found
T2604 000:117.134   AP[0]: AHB-AP ROM base: 0xE00FF000
T2604 000:123.010   CPUID register: 0x412FC230. Implementer code: 0x41 (ARM)
T2604 000:124.937   Found Cortex-M3 r2p0, Little endian.
T2604 000:226.871   -- Max. mem block: 0x000023F8
T2604 000:226.988   CPU_ReadMem(4 bytes @ 0xE000EDF0)
T2604 000:227.958   CPU_ReadMem(4 bytes @ 0xE0002000)
T2604 000:236.929   FPUnit: 6 code (BP) slots and 2 literal slots
T2604 000:237.026   CPU_ReadMem(4 bytes @ 0xE000EDFC)
T2604 000:237.674   CPU_ReadMem(4 bytes @ 0xE0001000)
T2604 000:238.338   CPU_WriteMem(4 bytes @ 0xE0001000)
T2604 000:239.006   CPU_ReadMem(4 bytes @ 0xE000ED88)
T2604 000:239.674   CPU_WriteMem(4 bytes @ 0xE000ED88)
T2604 000:240.334   CPU_ReadMem(4 bytes @ 0xE000ED88)
T2604 000:241.049   CPU_WriteMem(4 bytes @ 0xE000ED88)
T2604 000:249.951   CoreSight components:
T2604 000:258.241   ROMTbl[0] @ E00FF000
T2604 000:258.331   CPU_ReadMem(64 bytes @ 0xE00FF000)
T2604 000:259.420   CPU_ReadMem(32 bytes @ 0xE000EFE0)
T2604 000:266.153   ROMTbl[0][0]: E000E000, CID: B105E00D, PID: 002BB000 SCS
T2604 000:266.212   CPU_ReadMem(32 bytes @ 0xE0001FE0)
T2604 000:272.690   ROMTbl[0][1]: E0001000, CID: B105E00D, PID: 002BB002 DWT
T2604 000:272.752   CPU_ReadMem(32 bytes @ 0xE0002FE0)
T2604 000:278.721   ROMTbl[0][2]: E0002000, CID: B105E00D, PID: 002BB003 FPB
T2604 000:278.910   CPU_ReadMem(32 bytes @ 0xE0000FE0)
T2604 000:284.563   ROMTbl[0][3]: E0000000, CID: B105E00D, PID: 002BB001 ITM
T2604 000:284.613   CPU_ReadMem(32 bytes @ 0xE0040FE0)
T2604 000:290.244   ROMTbl[0][4]: E0040000, CID: B105900D, PID: 002BB923 TPIU-Lite
T2604 000:290.295   CPU_ReadMem(32 bytes @ 0xE0041FE0)
T2604 000:295.923   ROMTbl[0][5]: E0041000, CID: B105900D, PID: 002BB924 ETM-M3
T2604 000:296.736 - 220.238ms returns 0x2BA01477
T2604 000:296.782 JLINK_GetDLLVersion()
T2604 000:296.798 - 0.023ms returns 68600
T2604 000:296.818 JLINK_CORE_GetFound()
T2604 000:296.833 - 0.022ms returns 0x30000FF
T2604 000:296.856 JLINK_GetDebugInfo(0x100 = JLINKARM_ROM_TABLE_ADDR_INDEX)
T2604 000:296.874   Value=0xE00FF000
T2604 000:296.895 - 0.046ms returns 0
T2604 000:301.058 JLINK_GetDebugInfo(0x100 = JLINKARM_ROM_TABLE_ADDR_INDEX)
T2604 000:301.095   Value=0xE00FF000
T2604 000:301.116 - 0.065ms returns 0
T2604 000:301.136 JLINK_GetDebugInfo(0x101 = JLINKARM_DEBUG_INFO_ETM_ADDR_INDEX)
T2604 000:301.152   Value=0xE0041000
T2604 000:301.172 - 0.042ms returns 0
T2604 000:301.204 JLINK_ReadMemEx(0xE0041FD0, 0x20 Bytes, Flags = 0x02000004)
T2604 000:301.254   CPU_ReadMem(32 bytes @ 0xE0041FD0)
T2604 000:302.337   Data:  04 00 00 00 00 00 00 00 00 00 00 00 00 00 00 00 ...
T2604 000:302.383 - 1.186ms returns 32 (0x20)
T2604 000:302.412 JLINK_GetDebugInfo(0x102 = JLINKARM_DEBUG_INFO_MTB_ADDR_INDEX)
T2604 000:302.429   Value=0x00000000
T2604 000:302.449 - 0.044ms returns 0
T2604 000:302.468 JLINK_GetDebugInfo(0x103 = JLINKARM_DEBUG_INFO_TPIU_ADDR_INDEX)
T2604 000:302.483   Value=0xE0040000
T2604 000:302.503 - 0.041ms returns 0
T2604 000:302.521 JLINK_GetDebugInfo(0x104 = JLINKARM_DEBUG_INFO_ITM_ADDR_INDEX)
T2604 000:302.535   Value=0xE0000000
T2604 000:302.560 - 0.046ms returns 0
T2604 000:302.579 JLINK_GetDebugInfo(0x105 = JLINKARM_DEBUG_INFO_DWT_ADDR_INDEX)
T2604 000:302.595   Value=0xE0001000
T2604 000:302.618 - 0.047ms returns 0
T2604 000:302.639 JLINK_GetDebugInfo(0x106 = JLINKARM_DEBUG_INFO_FPB_ADDR_INDEX)
T2604 000:302.658   Value=0xE0002000
T2604 000:302.680 - 0.048ms returns 0
T2604 000:302.699 JLINK_GetDebugInfo(0x107 = JLINKARM_DEBUG_INFO_NVIC_ADDR_INDEX)
T2604 000:302.715   Value=0xE000E000
T2604 000:302.737 - 0.045ms returns 0
T2604 000:302.757 JLINK_GetDebugInfo(0x10C = JLINKARM_DEBUG_INFO_DBG_ADDR_INDEX)
T2604 000:302.772   Value=0xE000EDF0
T2604 000:302.793 - 0.043ms returns 0
T2604 000:302.812 JLINK_GetDebugInfo(0x01 = Unknown)
T2604 000:302.828   Value=0x00000000
T2604 000:302.850 - 0.045ms returns 0
T2604 000:302.868 JLINK_ReadMemU32(0xE000ED00, 0x1 Items)
T2604 000:302.900   CPU_ReadMem(4 bytes @ 0xE000ED00)
T2604 000:303.618   Data:  30 C2 2F 41
T2604 000:303.664   Debug reg: CPUID
T2604 000:303.685 - 0.824ms returns 1 (0x1)
T2604 000:303.713 JLINK_GetDebugInfo(0x10F = JLINKARM_DEBUG_INFO_HAS_CORTEX_M_SECURITY_EXT_INDEX)
T2604 000:303.730   Value=0x00000000
T2604 000:303.751 - 0.045ms returns 0
T2604 000:303.771 JLINK_HasError()
T2604 000:303.792 JLINK_SetResetType(JLINKARM_CM3_RESET_TYPE_NORMAL)
T2604 000:303.807 - 0.022ms returns ???
T2604 000:303.842 JLINK_Reset()
T2604 000:303.881   CPU is running
T2604 000:303.908   CPU_WriteMem(4 bytes @ 0xE000EDF0)
T2604 000:304.623   CPU is running
T2604 000:304.673   CPU_WriteMem(4 bytes @ 0xE000EDFC)
T2604 000:309.811   Reset: Halt core after reset via DEMCR.VC_CORERESET.
T2604 000:315.285   Reset: Reset device via AIRCR.SYSRESETREQ.
T2604 000:315.331   CPU is running
T2604 000:315.358   CPU_WriteMem(4 bytes @ 0xE000ED0C)
T2604 000:369.252   CPU_ReadMem(4 bytes @ 0xE000EDF0)
T2604 000:370.146   CPU_ReadMem(4 bytes @ 0xE000EDF0)
T2604 000:370.856   CPU is running
T2604 000:370.929   CPU_WriteMem(4 bytes @ 0xE000EDF0)
T2604 000:371.835   CPU is running
T2604 000:371.925   CPU_WriteMem(4 bytes @ 0xE000EDFC)
T2604 000:378.272   CPU_ReadMem(4 bytes @ 0xE000EDF0)
T2604 000:382.201   CPU_WriteMem(4 bytes @ 0xE000EDFC)
T2604 000:382.929   CPU_WriteMem(4 bytes @ 0xE000EDFC)
T2604 000:383.630   CPU_WriteMem(4 bytes @ 0xE000EDFC)
T2604 000:384.338   CPU_WriteMem(4 bytes @ 0xE000EDFC)
T2604 000:385.054   CPU_WriteMem(4 bytes @ 0xE000EDFC)
T2604 000:385.745   CPU_WriteMem(4 bytes @ 0xE0001050)
T2604 000:386.494   CPU_WriteMem(4 bytes @ 0xE0001054)
T2604 000:387.132   CPU_WriteMem(4 bytes @ 0xE0001058)
T2604 000:388.333   CPU_ReadMem(4 bytes @ 0xE0001000)
T2604 000:493.877   CPU_WriteMem(4 bytes @ 0xE000EDFC)
T2604 000:494.681   CPU_WriteMem(4 bytes @ 0xE0001058)
T2604 000:495.551   CPU_ReadMem(4 bytes @ 0x00000004)
T2604 000:496.390   CPU_ReadMem(4 bytes @ 0xE0002000)
T2604 000:497.170   CPU_ReadMem(4 bytes @ 0xE0002008)
T2604 000:497.841   CPU_ReadMem(4 bytes @ 0xE000200C)
T2604 000:498.589   CPU_ReadMem(4 bytes @ 0xE0002010)
T2604 000:499.295   CPU_ReadMem(4 bytes @ 0xE0002014)
T2604 000:500.119   CPU_ReadMem(4 bytes @ 0xE0002018)
T2604 000:500.742   CPU_ReadMem(4 bytes @ 0xE000201C)
T2604 000:501.301   CPU_WriteMem(4 bytes @ 0xE0002000)
T2604 000:501.827   CPU_WriteMem(4 bytes @ 0xE0002008)
T2604 000:502.518   CPU_WriteMem(4 bytes @ 0xE000200C)
T2604 000:503.382   CPU_WriteMem(4 bytes @ 0xE0002010)
T2604 000:504.211   CPU_WriteMem(4 bytes @ 0xE0002014)
T2604 000:504.886   CPU_WriteMem(4 bytes @ 0xE0002018)
T2604 000:505.596   CPU_WriteMem(4 bytes @ 0xE000201C)
T2604 000:506.259   CPU_ReadMem(4 bytes @ 0xE0001000)
T2604 000:611.452   CPU_ReadMem(4 bytes @ 0x400FC040)
T2604 000:612.172   CPU_WriteMem(4 bytes @ 0xE0002000)
T2604 000:612.891   CPU_WriteMem(4 bytes @ 0xE0002008)
T2604 000:613.619   CPU_WriteMem(4 bytes @ 0xE000200C)
T2604 000:614.403   CPU_WriteMem(4 bytes @ 0xE0002010)
T2604 000:615.077   CPU_WriteMem(4 bytes @ 0xE0002014)
T2604 000:615.883   CPU_WriteMem(4 bytes @ 0xE0002018)
T2604 000:616.654   CPU_WriteMem(4 bytes @ 0xE000201C)
T2604 000:617.377   CPU_WriteMem(4 bytes @ 0xE0002000)
T2604 000:618.162   CPU_ReadMem(4 bytes @ 0xE000EDFC)
T2604 000:619.227   CPU_ReadMem(4 bytes @ 0xE0001000)
T2604 000:619.964 - 316.163ms
T2604 000:620.057 JLINK_Halt()
T2604 000:620.088 - 0.045ms returns 0x00
T2604 000:620.126 JLINK_ReadMemU32(0xE000EDF0, 0x1 Items)
T2604 000:620.194   CPU_ReadMem(4 bytes @ 0xE000EDF0)
T2604 000:620.959   Data:  03 00 03 00
T2604 000:621.042   Debug reg: DHCSR
T2604 000:621.082 - 0.970ms returns 1 (0x1)
T2604 000:621.172 JLINK_WriteU32_64(0xE000EDF0, 0xA05F0003)
T2604 000:621.225   Debug reg: DHCSR
T2604 000:621.329   CPU_WriteMem(4 bytes @ 0xE000EDF0)
T2604 000:622.316 - 1.198ms returns 0 (0x00000000)
T2604 000:622.423 JLINK_WriteU32_64(0xE000EDFC, 0x01000000)
T2604 000:622.459   Debug reg: DEMCR
T2604 000:622.534   CPU_WriteMem(4 bytes @ 0xE000EDFC)
T2604 000:623.218 - 0.833ms returns 0 (0x00000000)
T2604 000:650.724 JLINK_GetHWStatus(...)
T2604 000:651.028 - 0.326ms returns 0
T2604 000:661.079 JLINK_GetNumBPUnits(Type = 0xFFFFFF00)
T2604 000:661.106 - 0.031ms returns 0x06
T2604 000:661.119 JLINK_GetNumBPUnits(Type = 0xF0)
T2604 000:661.129 - 0.014ms returns 0x2000
T2604 000:661.141 JLINK_GetNumWPUnits()
T2604 000:661.150 - 0.013ms returns 4
T2604 000:667.709 JLINK_GetSpeed()
T2604 000:667.727 - 0.023ms returns 4000
T2604 000:671.553 JLINK_ReadMemU32(0xE000E004, 0x1 Items)
T2604 000:671.583   CPU_ReadMem(4 bytes @ 0xE000E004)
T2604 000:672.001   Data:  01 00 00 00
T2604 000:672.022 - 0.473ms returns 1 (0x1)
T2604 000:672.037 JLINK_ReadMemU32(0xE000E004, 0x1 Items)
T2604 000:672.052   CPU_ReadMem(4 bytes @ 0xE000E004)
T2604 000:672.537   Data:  01 00 00 00
T2604 000:672.557 - 0.524ms returns 1 (0x1)
T2604 000:672.572 JLINK_WriteMemEx(0xE0001000, 0x0000001C Bytes, Flags = 0x02000004)
T2604 000:672.582   Data:  01 00 00 00 00 00 00 00 00 00 00 00 00 00 00 00 ...
T2604 000:672.939   CPU_WriteMem(28 bytes @ 0xE0001000)
T2604 000:673.635 - 1.081ms returns 0x1C
T2604 000:679.171 JLINK_Halt()
T2604 000:679.193 - 0.027ms returns 0x00
T2604 000:679.207 JLINK_IsHalted()
T2604 000:679.224   CPU_ReadMem(4 bytes @ 0x400FC040)
T2604 000:679.825 - 0.638ms returns TRUE
T2604 000:683.438 JLINK_WriteMem(0x10000000, 0x1E4 Bytes, ...)
T2604 000:683.455   Data:  00 BE 0A E0 0D 78 2D 06 68 40 08 24 40 00 00 D3 ...
T2604 000:683.784   CPU_WriteMem(484 bytes @ 0x10000000)
T2604 000:687.281 - 3.886ms returns 0x1E4
T2604 000:687.396 JLINK_HasError()
T2604 000:687.416 JLINK_WriteReg(R0, 0x00000000)
T2604 000:687.435 - 0.024ms returns 0
T2604 000:687.451 JLINK_WriteReg(R1, 0x00B71B00)
T2604 000:687.463 - 0.018ms returns 0
T2604 000:687.478 JLINK_WriteReg(R2, 0x00000001)
T2604 000:687.490 - 0.018ms returns 0
T2604 000:687.505 JLINK_WriteReg(R3, 0x00000000)
T2604 000:687.517 - 0.017ms returns 0
T2604 000:687.531 JLINK_WriteReg(R4, 0x00000000)
T2604 000:687.543 - 0.017ms returns 0
T2604 000:687.558 JLINK_WriteReg(R5, 0x00000000)
T2604 000:687.570 - 0.017ms returns 0
T2604 000:687.584 JLINK_WriteReg(R6, 0x00000000)
T2604 000:687.596 - 0.017ms returns 0
T2604 000:687.611 JLINK_WriteReg(R7, 0x00000000)
T2604 000:687.622 - 0.017ms returns 0
T2604 000:687.637 JLINK_WriteReg(R8, 0x00000000)
T2604 000:687.665 - 0.033ms returns 0
T2604 000:687.680 JLINK_WriteReg(R9, 0x100001DC)
T2604 000:687.692 - 0.017ms returns 0
T2604 000:687.707 JLINK_WriteReg(R10, 0x00000000)
T2604 000:687.719 - 0.017ms returns 0
T2604 000:687.733 JLINK_WriteReg(R11, 0x00000000)
T2604 000:687.745 - 0.017ms returns 0
T2604 000:687.759 JLINK_WriteReg(R12, 0x00000000)
T2604 000:687.771 - 0.017ms returns 0
T2604 000:687.786 JLINK_WriteReg(R13 (SP), 0x10000FE0)
T2604 000:687.799 - 0.018ms returns 0
T2604 000:687.813 JLINK_WriteReg(R14, 0x10000001)
T2604 000:687.825 - 0.017ms returns 0
T2604 000:687.840 JLINK_WriteReg(R15 (PC), 0x10000044)
T2604 000:687.860 - 0.026ms returns 0
T2604 000:687.875 JLINK_WriteReg(XPSR, 0x01000000)
T2604 000:687.887 - 0.017ms returns 0
T2604 000:687.902 JLINK_WriteReg(MSP, 0x10000FE0)
T2604 000:687.914 - 0.017ms returns 0
T2604 000:687.928 JLINK_WriteReg(PSP, 0x10000FE0)
T2604 000:687.940 - 0.017ms returns 0
T2604 000:687.955 JLINK_WriteReg(CFBP, 0x00000000)
T2604 000:687.967 - 0.017ms returns 0
T2604 000:687.981 JLINK_SetBPEx(Addr = 0x10000000, Type = 0xFFFFFFF2)
T2604 000:687.996 - 0.020ms returns 0x00000001
T2604 000:688.011 JLINK_Go()
T2604 000:688.031   CPU_WriteMem(4 bytes @ 0xE0002000)
T2604 000:688.589   CPU_ReadMem(4 bytes @ 0xE0001000)
T2604 000:689.400   CPU_WriteMem(4 bytes @ 0xE0002008)
T2604 000:689.428   CPU_WriteMem(4 bytes @ 0xE000200C)
T2604 000:689.447   CPU_WriteMem(4 bytes @ 0xE0002010)
T2604 000:689.464   CPU_WriteMem(4 bytes @ 0xE0002014)
T2604 000:689.482   CPU_WriteMem(4 bytes @ 0xE0002018)
T2604 000:689.499   CPU_WriteMem(4 bytes @ 0xE000201C)
T2604 000:691.591   CPU_WriteMem(4 bytes @ 0xE0001004)
T2604 000:694.647 - 6.657ms
T2604 000:694.688 JLINK_IsHalted()
T2604 000:697.190 - 2.529ms returns TRUE
T2604 000:697.248 JLINK_ReadReg(R15 (PC))
T2604 000:697.276 - 0.035ms returns 0x10000000
T2604 000:697.296 JLINK_ClrBPEx(BPHandle = 0x00000001)
T2604 000:697.313 - 0.024ms returns 0x00
T2604 000:697.332 JLINK_ReadReg(R0)
T2604 000:697.347 - 0.022ms returns 0x00000000
T2604 000:699.379 JLINK_HasError()
T2604 000:699.413 JLINK_WriteReg(R0, 0x00000000)
T2604 000:699.435 - 0.029ms returns 0
T2604 000:699.458 JLINK_WriteReg(R1, 0x00B71B00)
T2604 000:699.475 - 0.024ms returns 0
T2604 000:699.494 JLINK_WriteReg(R2, 0x00000001)
T2604 000:699.509 - 0.022ms returns 0
T2604 000:699.528 JLINK_WriteReg(R3, 0x00000000)
T2604 000:699.544 - 0.022ms returns 0
T2604 000:699.562 JLINK_WriteReg(R4, 0x00000000)
T2604 000:699.578 - 0.022ms returns 0
T2604 000:699.596 JLINK_WriteReg(R5, 0x00000000)
T2604 000:699.611 - 0.022ms returns 0
T2604 000:699.630 JLINK_WriteReg(R6, 0x00000000)
T2604 000:699.645 - 0.022ms returns 0
T2604 000:699.664 JLINK_WriteReg(R7, 0x00000000)
T2604 000:699.679 - 0.022ms returns 0
T2604 000:699.698 JLINK_WriteReg(R8, 0x00000000)
T2604 000:699.713 - 0.022ms returns 0
T2604 000:699.731 JLINK_WriteReg(R9, 0x100001DC)
T2604 000:699.746 - 0.022ms returns 0
T2604 000:699.765 JLINK_WriteReg(R10, 0x00000000)
T2604 000:699.780 - 0.117ms returns 0
T2604 000:699.903 JLINK_WriteReg(R11, 0x00000000)
T2604 000:699.921 - 0.025ms returns 0
T2604 000:699.940 JLINK_WriteReg(R12, 0x00000000)
T2604 000:699.955 - 0.022ms returns 0
T2604 000:699.974 JLINK_WriteReg(R13 (SP), 0x10000FE0)
T2604 000:699.990 - 0.023ms returns 0
T2604 000:700.009 JLINK_WriteReg(R14, 0x10000001)
T2604 000:700.024 - 0.022ms returns 0
T2604 000:700.042 JLINK_WriteReg(R15 (PC), 0x100000D0)
T2604 000:700.058 - 0.022ms returns 0
T2604 000:700.076 JLINK_WriteReg(XPSR, 0x01000000)
T2604 000:700.091 - 0.022ms returns 0
T2604 000:700.110 JLINK_WriteReg(MSP, 0x10000FE0)
T2604 000:700.125 - 0.022ms returns 0
T2604 000:700.143 JLINK_WriteReg(PSP, 0x10000FE0)
T2604 000:700.159 - 0.022ms returns 0
T2604 000:700.177 JLINK_WriteReg(CFBP, 0x00000000)
T2604 000:700.192 - 0.022ms returns 0
T2604 000:700.211 JLINK_SetBPEx(Addr = 0x10000000, Type = 0xFFFFFFF2)
T2604 000:700.229 - 0.025ms returns 0x00000002
T2604 000:700.249 JLINK_Go()
T2604 000:700.273   CPU_WriteMem(4 bytes @ 0xE0002000)
T2604 000:700.890   CPU_ReadMem(4 bytes @ 0xE0001000)
T2604 000:704.471 - 4.254ms
T2604 000:704.531 JLINK_IsHalted()
T2604 000:705.166 - 0.666ms returns FALSE
T2604 000:705.226 JLINK_HasError()
T2604 000:730.390 JLINK_IsHalted()
T2604 000:730.925 - 0.558ms returns FALSE
T2604 000:730.972 JLINK_HasError()
T2604 000:732.600 JLINK_IsHalted()
T2604 000:733.399 - 0.830ms returns FALSE
T2604 000:733.453 JLINK_HasError()
T2604 000:735.405 JLINK_IsHalted()
T2604 000:735.915 - 0.531ms returns FALSE
T2604 000:735.957 JLINK_HasError()
T2604 000:737.376 JLINK_IsHalted()
T2604 000:737.859 - 0.501ms returns FALSE
T2604 000:737.896 JLINK_HasError()
T2604 000:739.366 JLINK_IsHalted()
T2604 000:739.827 - 0.480ms returns FALSE
T2604 000:739.866 JLINK_HasError()
T2604 000:741.554 JLINK_IsHalted()
T2604 000:742.191 - 0.668ms returns FALSE
T2604 000:742.245 JLINK_HasError()
T2604 000:743.601 JLINK_IsHalted()
T2604 000:744.419 - 0.848ms returns FALSE
T2604 000:744.472 JLINK_HasError()
T2604 000:746.573 JLINK_IsHalted()
T2604 000:747.415 - 0.873ms returns FALSE
T2604 000:747.468 JLINK_HasError()
T2604 000:748.847 JLINK_IsHalted()
T2604 000:749.574 - 0.757ms returns FALSE
T2604 000:749.627 JLINK_HasError()
T2604 000:751.611 JLINK_IsHalted()
T2604 000:752.197 - 0.606ms returns FALSE
T2604 000:752.238 JLINK_HasError()
T2604 000:753.769 JLINK_IsHalted()
T2604 000:754.330 - 0.587ms returns FALSE
T2604 000:754.376 JLINK_HasError()
T2604 000:755.713 JLINK_IsHalted()
T2604 000:756.201 - 0.507ms returns FALSE
T2604 000:756.239 JLINK_HasError()
T2604 000:757.590 JLINK_IsHalted()
T2604 000:758.059 - 0.487ms returns FALSE
T2604 000:758.096 JLINK_HasError()
T2604 000:759.599 JLINK_IsHalted()
T2604 000:760.393 - 0.825ms returns FALSE
T2604 000:760.447 JLINK_HasError()
T2604 000:762.016 JLINK_IsHalted()
T2604 000:762.654 - 0.669ms returns FALSE
T2604 000:762.718 JLINK_HasError()
T2604 000:764.019 JLINK_IsHalted()
T2604 000:764.698 - 0.709ms returns FALSE
T2604 000:764.751 JLINK_HasError()
T2604 000:766.290 JLINK_IsHalted()
T2604 000:767.022 - 0.762ms returns FALSE
T2604 000:767.075 JLINK_HasError()
T2604 000:769.224 JLINK_IsHalted()
T2604 000:769.827 - 0.628ms returns FALSE
T2604 000:769.872 JLINK_HasError()
T2604 000:771.252 JLINK_IsHalted()
T2604 000:771.813 - 0.587ms returns FALSE
T2604 000:771.861 JLINK_HasError()
T2604 000:773.201 JLINK_IsHalted()
T2604 000:773.800 - 0.636ms returns FALSE
T2604 000:773.865 JLINK_HasError()
T2604 000:775.260 JLINK_IsHalted()
T2604 000:775.867 - 0.639ms returns FALSE
T2604 000:775.925 JLINK_HasError()
T2604 000:778.050 JLINK_IsHalted()
T2604 000:778.587 - 0.560ms returns FALSE
T2604 000:778.633 JLINK_HasError()
T2604 000:780.037 JLINK_IsHalted()
T2604 000:780.587 - 0.576ms returns FALSE
T2604 000:780.637 JLINK_HasError()
T2604 000:782.034 JLINK_IsHalted()
T2604 000:782.545 - 0.535ms returns FALSE
T2604 000:782.593 JLINK_HasError()
T2604 000:784.028 JLINK_IsHalted()
T2604 000:784.584 - 0.580ms returns FALSE
T2604 000:784.640 JLINK_HasError()
T2604 000:786.068 JLINK_IsHalted()
T2604 000:786.589 - 0.544ms returns FALSE
T2604 000:786.636 JLINK_HasError()
T2604 000:788.061 JLINK_IsHalted()
T2604 000:788.590 - 0.553ms returns FALSE
T2604 000:788.637 JLINK_HasError()
T2604 000:790.163 JLINK_IsHalted()
T2604 000:790.913 - 0.788ms returns FALSE
T2604 000:790.978 JLINK_HasError()
T2604 000:792.655 JLINK_IsHalted()
T2604 000:793.212 - 0.602ms returns FALSE
T2604 000:793.295 JLINK_HasError()
T2604 000:794.786 JLINK_IsHalted()
T2604 000:795.686 - 0.937ms returns FALSE
T2604 000:795.750 JLINK_HasError()
T2604 000:797.594 JLINK_IsHalted()
T2604 000:798.154 - 0.588ms returns FALSE
T2604 000:798.207 JLINK_HasError()
T2604 000:799.563 JLINK_IsHalted()
T2604 000:800.063 - 0.522ms returns FALSE
T2604 000:800.109 JLINK_HasError()
T2604 000:801.554 JLINK_IsHalted()
T2604 000:802.028 - 0.499ms returns FALSE
T2604 000:802.077 JLINK_HasError()
T2604 000:803.578 JLINK_IsHalted()
T2604 000:804.122 - 0.569ms returns FALSE
T2604 000:804.171 JLINK_HasError()
T2604 000:808.597 JLINK_IsHalted()
T2604 000:811.548 - 2.987ms returns TRUE
T2604 000:811.609 JLINK_ReadReg(R15 (PC))
T2604 000:811.636 - 0.037ms returns 0x10000000
T2604 000:811.662 JLINK_ClrBPEx(BPHandle = 0x00000002)
T2604 000:811.683 - 0.030ms returns 0x00
T2604 000:811.707 JLINK_ReadReg(R0)
T2604 000:811.727 - 0.029ms returns 0x00000000
T2604 000:866.655 JLINK_HasError()
T2604 000:866.740 JLINK_WriteReg(R0, 0x00000001)
T2604 000:866.783 - 0.058ms returns 0
T2604 000:866.822 JLINK_WriteReg(R1, 0x00B71B00)
T2604 000:866.852 - 0.044ms returns 0
T2604 000:866.889 JLINK_WriteReg(R2, 0x00000001)
T2604 000:866.918 - 0.042ms returns 0
T2604 000:866.954 JLINK_WriteReg(R3, 0x00000000)
T2604 000:866.983 - 0.042ms returns 0
T2604 000:867.018 JLINK_WriteReg(R4, 0x00000000)
T2604 000:867.047 - 0.042ms returns 0
T2604 000:867.082 JLINK_WriteReg(R5, 0x00000000)
T2604 000:867.111 - 0.042ms returns 0
T2604 000:867.146 JLINK_WriteReg(R6, 0x00000000)
T2604 000:867.175 - 0.042ms returns 0
T2604 000:867.210 JLINK_WriteReg(R7, 0x00000000)
T2604 000:867.238 - 0.042ms returns 0
T2604 000:867.273 JLINK_WriteReg(R8, 0x00000000)
T2604 000:867.302 - 0.042ms returns 0
T2604 000:867.337 JLINK_WriteReg(R9, 0x100001DC)
T2604 000:867.365 - 0.042ms returns 0
T2604 000:867.400 JLINK_WriteReg(R10, 0x00000000)
T2604 000:867.429 - 0.042ms returns 0
T2604 000:867.464 JLINK_WriteReg(R11, 0x00000000)
T2604 000:867.492 - 0.042ms returns 0
T2604 000:867.527 JLINK_WriteReg(R12, 0x00000000)
T2604 000:867.560 - 0.100ms returns 0
T2604 000:867.650 JLINK_WriteReg(R13 (SP), 0x10000FE0)
T2604 000:867.682 - 0.046ms returns 0
T2604 000:867.718 JLINK_WriteReg(R14, 0x10000001)
T2604 000:867.746 - 0.042ms returns 0
T2604 000:867.782 JLINK_WriteReg(R15 (PC), 0x100000CC)
T2604 000:867.811 - 0.042ms returns 0
T2604 000:867.846 JLINK_WriteReg(XPSR, 0x01000000)
T2604 000:867.875 - 0.043ms returns 0
T2604 000:867.911 JLINK_WriteReg(MSP, 0x10000FE0)
T2604 000:867.939 - 0.042ms returns 0
T2604 000:867.974 JLINK_WriteReg(PSP, 0x10000FE0)
T2604 000:868.003 - 0.042ms returns 0
T2604 000:868.038 JLINK_WriteReg(CFBP, 0x00000000)
T2604 000:868.067 - 0.042ms returns 0
T2604 000:868.102 JLINK_SetBPEx(Addr = 0x10000000, Type = 0xFFFFFFF2)
T2604 000:868.138 - 0.049ms returns 0x00000003
T2604 000:868.174 JLINK_Go()
T2604 000:868.222   CPU_WriteMem(4 bytes @ 0xE0002000)
T2604 000:868.930   CPU_ReadMem(4 bytes @ 0xE0001000)
T2604 000:872.515 - 4.406ms
T2604 000:872.620 JLINK_IsHalted()
T2604 000:875.779 - 3.213ms returns TRUE
T2604 000:875.871 JLINK_ReadReg(R15 (PC))
T2604 000:875.913 - 0.058ms returns 0x10000000
T2604 000:875.955 JLINK_ClrBPEx(BPHandle = 0x00000003)
T2604 000:875.992 - 0.052ms returns 0x00
T2604 000:876.034 JLINK_ReadReg(R0)
T2604 000:876.072 - 0.057ms returns 0x00000000
T2604 000:894.964 JLINK_WriteMem(0x10000000, 0x1E4 Bytes, ...)
T2604 000:895.018   Data:  00 BE 0A E0 0D 78 2D 06 68 40 08 24 40 00 00 D3 ...
T2604 000:895.097   CPU_WriteMem(484 bytes @ 0x10000000)
T2604 000:898.879 - 3.963ms returns 0x1E4
T2604 000:899.069 JLINK_HasError()
T2604 000:899.116 JLINK_WriteReg(R0, 0x00000000)
T2604 000:899.159 - 0.057ms returns 0
T2604 000:899.196 JLINK_WriteReg(R1, 0x00B71B00)
T2604 000:899.226 - 0.044ms returns 0
T2604 000:899.262 JLINK_WriteReg(R2, 0x00000002)
T2604 000:899.291 - 0.043ms returns 0
T2604 000:899.327 JLINK_WriteReg(R3, 0x00000000)
T2604 000:899.356 - 0.043ms returns 0
T2604 000:899.392 JLINK_WriteReg(R4, 0x00000000)
T2604 000:899.421 - 0.043ms returns 0
T2604 000:899.457 JLINK_WriteReg(R5, 0x00000000)
T2604 000:899.486 - 0.043ms returns 0
T2604 000:899.522 JLINK_WriteReg(R6, 0x00000000)
T2604 000:899.550 - 0.042ms returns 0
T2604 000:899.586 JLINK_WriteReg(R7, 0x00000000)
T2604 000:899.614 - 0.042ms returns 0
T2604 000:899.650 JLINK_WriteReg(R8, 0x00000000)
T2604 000:899.679 - 0.043ms returns 0
T2604 000:899.714 JLINK_WriteReg(R9, 0x100001DC)
T2604 000:899.743 - 0.042ms returns 0
T2604 000:899.779 JLINK_WriteReg(R10, 0x00000000)
T2604 000:899.830 - 0.065ms returns 0
T2604 000:899.866 JLINK_WriteReg(R11, 0x00000000)
T2604 000:899.894 - 0.042ms returns 0
T2604 000:899.929 JLINK_WriteReg(R12, 0x00000000)
T2604 000:899.958 - 0.042ms returns 0
T2604 000:899.992 JLINK_WriteReg(R13 (SP), 0x10000FE0)
T2604 000:900.023 - 0.044ms returns 0
T2604 000:900.058 JLINK_WriteReg(R14, 0x10000001)
T2604 000:900.086 - 0.042ms returns 0
T2604 000:900.121 JLINK_WriteReg(R15 (PC), 0x10000044)
T2604 000:900.150 - 0.042ms returns 0
T2604 000:900.185 JLINK_WriteReg(XPSR, 0x01000000)
T2604 000:900.214 - 0.042ms returns 0
T2604 000:900.248 JLINK_WriteReg(MSP, 0x10000FE0)
T2604 000:900.277 - 0.041ms returns 0
T2604 000:900.312 JLINK_WriteReg(PSP, 0x10000FE0)
T2604 000:900.340 - 0.042ms returns 0
T2604 000:900.375 JLINK_WriteReg(CFBP, 0x00000000)
T2604 000:900.403 - 0.041ms returns 0
T2604 000:900.438 JLINK_SetBPEx(Addr = 0x10000000, Type = 0xFFFFFFF2)
T2604 000:900.473 - 0.048ms returns 0x00000004
T2604 000:900.509 JLINK_Go()
T2604 000:900.553   CPU_WriteMem(4 bytes @ 0xE0002000)
T2604 000:901.327   CPU_ReadMem(4 bytes @ 0xE0001000)
T2604 000:904.689 - 4.223ms
T2604 000:904.769 JLINK_IsHalted()
T2604 000:907.538 - 2.807ms returns TRUE
T2604 000:907.611 JLINK_ReadReg(R15 (PC))
T2604 000:907.649 - 0.053ms returns 0x10000000
T2604 000:907.687 JLINK_ClrBPEx(BPHandle = 0x00000004)
T2604 000:907.718 - 0.045ms returns 0x00
T2604 000:907.755 JLINK_ReadReg(R0)
T2604 000:907.792 - 0.050ms returns 0x00000000
T2604 000:909.007 JLINK_WriteMem(0x10000204, 0x1FC Bytes, ...)
T2604 000:909.060   Data:  00 10 00 10 01 03 00 00 05 03 00 00 07 03 00 00 ...
T2604 000:909.138   CPU_WriteMem(508 bytes @ 0x10000204)
T2604 000:913.271 - 4.319ms returns 0x1FC
T2604 000:913.366 JLINK_WriteMem(0x10000400, 0x204 Bytes, ...)
T2604 000:913.400   Data:  30 BF 4F F0 00 00 70 47 00 47 00 00 2D E9 F0 5F ...
T2604 000:913.479   CPU_WriteMem(516 bytes @ 0x10000400)
T2604 000:917.867 - 4.574ms returns 0x204
T2604 000:917.988 JLINK_HasError()
T2604 000:918.035 JLINK_WriteReg(R0, 0x00000000)
T2604 000:918.147 - 0.129ms returns 0
T2604 000:918.187 JLINK_WriteReg(R1, 0x00000400)
T2604 000:918.218 - 0.044ms returns 0
T2604 000:918.253 JLINK_WriteReg(R2, 0x10000204)
T2604 000:918.281 - 0.041ms returns 0
T2604 000:918.315 JLINK_WriteReg(R3, 0x00000000)
T2604 000:918.343 - 0.041ms returns 0
T2604 000:918.378 JLINK_WriteReg(R4, 0x00000000)
T2604 000:918.405 - 0.041ms returns 0
T2604 000:918.440 JLINK_WriteReg(R5, 0x00000000)
T2604 000:918.467 - 0.041ms returns 0
T2604 000:918.502 JLINK_WriteReg(R6, 0x00000000)
T2604 000:918.529 - 0.041ms returns 0
T2604 000:918.564 JLINK_WriteReg(R7, 0x00000000)
T2604 000:918.591 - 0.041ms returns 0
T2604 000:918.626 JLINK_WriteReg(R8, 0x00000000)
T2604 000:918.654 - 0.041ms returns 0
T2604 000:918.736 JLINK_WriteReg(R9, 0x100001DC)
T2604 000:918.767 - 0.051ms returns 0
T2604 000:918.810 JLINK_WriteReg(R10, 0x00000000)
T2604 000:918.839 - 0.043ms returns 0
T2604 000:918.874 JLINK_WriteReg(R11, 0x00000000)
T2604 000:918.903 - 0.055ms returns 0
T2604 000:918.961 JLINK_WriteReg(R12, 0x00000000)
T2604 000:918.990 - 0.043ms returns 0
T2604 000:919.045 JLINK_WriteReg(R13 (SP), 0x10000FE0)
T2604 000:919.076 - 0.044ms returns 0
T2604 000:919.110 JLINK_WriteReg(R14, 0x10000001)
T2604 000:919.139 - 0.041ms returns 0
T2604 000:919.173 JLINK_WriteReg(R15 (PC), 0x10000156)
T2604 000:919.202 - 0.041ms returns 0
T2604 000:919.235 JLINK_WriteReg(XPSR, 0x01000000)
T2604 000:919.265 - 0.043ms returns 0
T2604 000:919.300 JLINK_WriteReg(MSP, 0x10000FE0)
T2604 000:919.330 - 0.044ms returns 0
T2604 000:919.366 JLINK_WriteReg(PSP, 0x10000FE0)
T2604 000:919.394 - 0.041ms returns 0
T2604 000:919.428 JLINK_WriteReg(CFBP, 0x00000000)
T2604 000:919.456 - 0.041ms returns 0
T2604 000:919.491 JLINK_SetBPEx(Addr = 0x10000000, Type = 0xFFFFFFF2)
T2604 000:919.524 - 0.047ms returns 0x00000005
T2604 000:919.587 JLINK_Go()
T2604 000:919.633   CPU_WriteMem(4 bytes @ 0xE0002000)
T2604 000:920.301   CPU_ReadMem(4 bytes @ 0xE0001000)
T2604 000:923.673 - 4.138ms
T2604 000:923.762 JLINK_IsHalted()
T2604 000:924.411 - 0.684ms returns FALSE
T2604 000:924.483 JLINK_HasError()
T2604 000:934.224 JLINK_IsHalted()
T2604 000:937.571 - 3.401ms returns TRUE
T2604 000:937.661 JLINK_ReadReg(R15 (PC))
T2604 000:937.702 - 0.056ms returns 0x10000000
T2604 000:937.741 JLINK_ClrBPEx(BPHandle = 0x00000005)
T2604 000:937.773 - 0.047ms returns 0x00
T2604 000:937.811 JLINK_ReadReg(R0)
T2604 000:937.841 - 0.043ms returns 0x00000000
T2604 000:940.429 JLINK_WriteMem(0x10000204, 0x1FC Bytes, ...)
T2604 000:940.521   Data:  30 44 00 F5 40 50 9A F8 00 10 12 78 90 F8 87 0D ...
T2604 000:940.606   CPU_WriteMem(508 bytes @ 0x10000204)
T2604 000:944.367 - 3.990ms returns 0x1FC
T2604 000:944.475 JLINK_WriteMem(0x10000400, 0x204 Bytes, ...)
T2604 000:944.509   Data:  05 20 01 F0 A4 FE 3E 48 00 78 01 28 03 D0 02 28 ...
T2604 000:944.586   CPU_WriteMem(516 bytes @ 0x10000400)
T2604 000:948.374 - 3.936ms returns 0x204
T2604 000:948.464 JLINK_HasError()
T2604 000:948.507 JLINK_WriteReg(R0, 0x00000400)
T2604 000:948.549 - 0.057ms returns 0
T2604 000:948.587 JLINK_WriteReg(R1, 0x00000400)
T2604 000:948.618 - 0.045ms returns 0
T2604 000:948.655 JLINK_WriteReg(R2, 0x10000204)
T2604 000:948.685 - 0.044ms returns 0
T2604 000:948.722 JLINK_WriteReg(R3, 0x00000000)
T2604 000:948.751 - 0.044ms returns 0
T2604 000:948.788 JLINK_WriteReg(R4, 0x00000000)
T2604 000:948.817 - 0.043ms returns 0
T2604 000:948.853 JLINK_WriteReg(R5, 0x00000000)
T2604 000:948.883 - 0.044ms returns 0
T2604 000:948.920 JLINK_WriteReg(R6, 0x00000000)
T2604 000:948.949 - 0.044ms returns 0
T2604 000:948.986 JLINK_WriteReg(R7, 0x00000000)
T2604 000:949.016 - 0.044ms returns 0
T2604 000:949.052 JLINK_WriteReg(R8, 0x00000000)
T2604 000:949.082 - 0.044ms returns 0
T2604 000:949.119 JLINK_WriteReg(R9, 0x100001DC)
T2604 000:949.148 - 0.044ms returns 0
T2604 000:949.185 JLINK_WriteReg(R10, 0x00000000)
T2604 000:949.214 - 0.043ms returns 0
T2604 000:949.250 JLINK_WriteReg(R11, 0x00000000)
T2604 000:949.280 - 0.044ms returns 0
T2604 000:949.316 JLINK_WriteReg(R12, 0x00000000)
T2604 000:949.346 - 0.043ms returns 0
T2604 000:949.382 JLINK_WriteReg(R13 (SP), 0x10000FE0)
T2604 000:949.425 - 0.058ms returns 0
T2604 000:949.462 JLINK_WriteReg(R14, 0x10000001)
T2604 000:949.492 - 0.044ms returns 0
T2604 000:949.528 JLINK_WriteReg(R15 (PC), 0x10000156)
T2604 000:949.559 - 0.044ms returns 0
T2604 000:949.595 JLINK_WriteReg(XPSR, 0x01000000)
T2604 000:949.624 - 0.043ms returns 0
T2604 000:949.661 JLINK_WriteReg(MSP, 0x10000FE0)
T2604 000:949.691 - 0.044ms returns 0
T2604 000:949.727 JLINK_WriteReg(PSP, 0x10000FE0)
T2604 000:949.757 - 0.044ms returns 0
T2604 000:949.793 JLINK_WriteReg(CFBP, 0x00000000)
T2604 000:949.823 - 0.044ms returns 0
T2604 000:949.860 JLINK_SetBPEx(Addr = 0x10000000, Type = 0xFFFFFFF2)
T2604 000:949.895 - 0.049ms returns 0x00000006
T2604 000:949.932 JLINK_Go()
T2604 000:949.975   CPU_WriteMem(4 bytes @ 0xE0002000)
T2604 000:950.678   CPU_ReadMem(4 bytes @ 0xE0001000)
T2604 000:954.658 - 4.781ms
T2604 000:954.753 JLINK_IsHalted()
T2604 000:955.324 - 0.612ms returns FALSE
T2604 000:955.402 JLINK_HasError()
T2604 000:957.723 JLINK_IsHalted()
T2604 000:958.379 - 0.719ms returns FALSE
T2604 000:958.482 JLINK_HasError()
T2604 000:964.590 JLINK_IsHalted()
T2604 000:967.406 - 2.854ms returns TRUE
T2604 000:967.480 JLINK_ReadReg(R15 (PC))
T2604 000:967.520 - 0.054ms returns 0x10000000
T2604 000:967.558 JLINK_ClrBPEx(BPHandle = 0x00000006)
T2604 000:967.590 - 0.046ms returns 0x00
T2604 000:967.627 JLINK_ReadReg(R0)
T2604 000:967.656 - 0.043ms returns 0x00000000
T2604 000:970.118 JLINK_WriteMem(0x10000204, 0x1FC Bytes, ...)
T2604 000:970.177   Data:  C1 00 45 70 48 1C C1 B2 37 29 F2 D3 DF 48 05 70 ...
T2604 000:970.251   CPU_WriteMem(508 bytes @ 0x10000204)
T2604 000:974.057 - 3.994ms returns 0x1FC
T2604 000:974.152 JLINK_WriteMem(0x10000400, 0x204 Bytes, ...)
T2604 000:974.187   Data:  30 B4 9C F8 04 20 9C F8 05 C0 00 23 94 45 28 BF ...
T2604 000:974.262   CPU_WriteMem(516 bytes @ 0x10000400)
T2604 000:978.376 - 4.279ms returns 0x204
T2604 000:978.473 JLINK_HasError()
T2604 000:978.516 JLINK_WriteReg(R0, 0x00000800)
T2604 000:978.561 - 0.059ms returns 0
T2604 000:978.599 JLINK_WriteReg(R1, 0x00000400)
T2604 000:978.630 - 0.045ms returns 0
T2604 000:978.667 JLINK_WriteReg(R2, 0x10000204)
T2604 000:978.697 - 0.043ms returns 0
T2604 000:978.733 JLINK_WriteReg(R3, 0x00000000)
T2604 000:978.763 - 0.044ms returns 0
T2604 000:978.799 JLINK_WriteReg(R4, 0x00000000)
T2604 000:978.828 - 0.043ms returns 0
T2604 000:978.864 JLINK_WriteReg(R5, 0x00000000)
T2604 000:978.894 - 0.043ms returns 0
T2604 000:978.930 JLINK_WriteReg(R6, 0x00000000)
T2604 000:978.960 - 0.044ms returns 0
T2604 000:978.996 JLINK_WriteReg(R7, 0x00000000)
T2604 000:979.025 - 0.043ms returns 0
T2604 000:979.061 JLINK_WriteReg(R8, 0x00000000)
T2604 000:979.091 - 0.043ms returns 0
T2604 000:979.127 JLINK_WriteReg(R9, 0x100001DC)
T2604 000:979.156 - 0.043ms returns 0
T2604 000:979.192 JLINK_WriteReg(R10, 0x00000000)
T2604 000:979.222 - 0.043ms returns 0
T2604 000:979.257 JLINK_WriteReg(R11, 0x00000000)
T2604 000:979.287 - 0.055ms returns 0
T2604 000:979.336 JLINK_WriteReg(R12, 0x00000000)
T2604 000:979.366 - 0.044ms returns 0
T2604 000:979.402 JLINK_WriteReg(R13 (SP), 0x10000FE0)
T2604 000:979.434 - 0.046ms returns 0
T2604 000:979.470 JLINK_WriteReg(R14, 0x10000001)
T2604 000:979.499 - 0.043ms returns 0
T2604 000:979.535 JLINK_WriteReg(R15 (PC), 0x10000156)
T2604 000:979.565 - 0.044ms returns 0
T2604 000:979.601 JLINK_WriteReg(XPSR, 0x01000000)
T2604 000:979.630 - 0.043ms returns 0
T2604 000:979.666 JLINK_WriteReg(MSP, 0x10000FE0)
T2604 000:979.695 - 0.043ms returns 0
T2604 000:979.731 JLINK_WriteReg(PSP, 0x10000FE0)
T2604 000:979.761 - 0.043ms returns 0
T2604 000:979.796 JLINK_WriteReg(CFBP, 0x00000000)
T2604 000:979.825 - 0.043ms returns 0
T2604 000:979.862 JLINK_SetBPEx(Addr = 0x10000000, Type = 0xFFFFFFF2)
T2604 000:979.897 - 0.049ms returns 0x00000007
T2604 000:979.934 JLINK_Go()
T2604 000:979.979   CPU_WriteMem(4 bytes @ 0xE0002000)
T2604 000:980.778   CPU_ReadMem(4 bytes @ 0xE0001000)
T2604 000:984.608 - 4.730ms
T2604 000:984.714 JLINK_IsHalted()
T2604 000:985.386 - 0.721ms returns FALSE
T2604 000:985.486 JLINK_HasError()
T2604 000:987.399 JLINK_IsHalted()
T2604 000:988.013 - 0.651ms returns FALSE
T2604 000:988.086 JLINK_HasError()
T2604 000:989.431 JLINK_IsHalted()
T2604 000:990.037 - 0.645ms returns FALSE
T2604 000:990.112 JLINK_HasError()
T2604 000:992.398 JLINK_IsHalted()
T2604 000:995.689 - 3.344ms returns TRUE
T2604 000:995.780 JLINK_ReadReg(R15 (PC))
T2604 000:995.819 - 0.054ms returns 0x10000000
T2604 000:995.857 JLINK_ClrBPEx(BPHandle = 0x00000007)
T2604 000:995.889 - 0.046ms returns 0x00
T2604 000:995.926 JLINK_ReadReg(R0)
T2604 000:995.955 - 0.044ms returns 0x00000000
T2604 000:998.077 JLINK_WriteMem(0x10000204, 0x1FC Bytes, ...)
T2604 000:998.131   Data:  C6 04 01 29 10 D0 15 F0 04 0F 33 D0 04 20 38 70 ...
T2604 000:998.204   CPU_WriteMem(508 bytes @ 0x10000204)
T2604 001:002.007 - 3.999ms returns 0x1FC
T2604 001:002.117 JLINK_WriteMem(0x10000400, 0x204 Bytes, ...)
T2604 001:002.150   Data:  08 80 FF F7 8C FE 10 B1 01 20 BD E8 F0 8F 60 1C ...
T2604 001:002.227   CPU_WriteMem(516 bytes @ 0x10000400)
T2604 001:006.088 - 4.027ms returns 0x204
T2604 001:006.188 JLINK_HasError()
T2604 001:006.233 JLINK_WriteReg(R0, 0x00000C00)
T2604 001:006.280 - 0.062ms returns 0
T2604 001:006.321 JLINK_WriteReg(R1, 0x00000400)
T2604 001:006.354 - 0.050ms returns 0
T2604 001:006.394 JLINK_WriteReg(R2, 0x10000204)
T2604 001:006.426 - 0.047ms returns 0
T2604 001:006.463 JLINK_WriteReg(R3, 0x00000000)
T2604 001:006.492 - 0.043ms returns 0
T2604 001:006.528 JLINK_WriteReg(R4, 0x00000000)
T2604 001:006.557 - 0.042ms returns 0
T2604 001:006.592 JLINK_WriteReg(R5, 0x00000000)
T2604 001:006.621 - 0.042ms returns 0
T2604 001:006.656 JLINK_WriteReg(R6, 0x00000000)
T2604 001:006.684 - 0.042ms returns 0
T2604 001:006.719 JLINK_WriteReg(R7, 0x00000000)
T2604 001:006.748 - 0.042ms returns 0
T2604 001:006.783 JLINK_WriteReg(R8, 0x00000000)
T2604 001:006.812 - 0.042ms returns 0
T2604 001:006.847 JLINK_WriteReg(R9, 0x100001DC)
T2604 001:006.875 - 0.042ms returns 0
T2604 001:006.910 JLINK_WriteReg(R10, 0x00000000)
T2604 001:006.939 - 0.042ms returns 0
T2604 001:006.974 JLINK_WriteReg(R11, 0x00000000)
T2604 001:007.003 - 0.042ms returns 0
T2604 001:007.038 JLINK_WriteReg(R12, 0x00000000)
T2604 001:007.066 - 0.047ms returns 0
T2604 001:007.107 JLINK_WriteReg(R13 (SP), 0x10000FE0)
T2604 001:007.139 - 0.045ms returns 0
T2604 001:007.175 JLINK_WriteReg(R14, 0x10000001)
T2604 001:007.203 - 0.043ms returns 0
T2604 001:007.239 JLINK_WriteReg(R15 (PC), 0x10000156)
T2604 001:007.269 - 0.042ms returns 0
T2604 001:007.304 JLINK_WriteReg(XPSR, 0x01000000)
T2604 001:007.332 - 0.042ms returns 0
T2604 001:007.367 JLINK_WriteReg(MSP, 0x10000FE0)
T2604 001:007.396 - 0.042ms returns 0
T2604 001:007.431 JLINK_WriteReg(PSP, 0x10000FE0)
T2604 001:007.460 - 0.043ms returns 0
T2604 001:007.495 JLINK_WriteReg(CFBP, 0x00000000)
T2604 001:007.524 - 0.042ms returns 0
T2604 001:007.559 JLINK_SetBPEx(Addr = 0x10000000, Type = 0xFFFFFFF2)
T2604 001:007.594 - 0.048ms returns 0x00000008
T2604 001:007.630 JLINK_Go()
T2604 001:007.674   CPU_WriteMem(4 bytes @ 0xE0002000)
T2604 001:008.362   CPU_ReadMem(4 bytes @ 0xE0001000)
T2604 001:011.620 - 4.027ms
T2604 001:011.702 JLINK_IsHalted()
T2604 001:012.319 - 0.653ms returns FALSE
T2604 001:012.400 JLINK_HasError()
T2604 001:014.065 JLINK_IsHalted()
T2604 001:014.708 - 0.678ms returns FALSE
T2604 001:014.779 JLINK_HasError()
T2604 001:016.337 JLINK_IsHalted()
T2604 001:017.098 - 0.859ms returns FALSE
T2604 001:017.238 JLINK_HasError()
T2604 001:019.312 JLINK_IsHalted()
T2604 001:022.457 - 3.199ms returns TRUE
T2604 001:022.547 JLINK_ReadReg(R15 (PC))
T2604 001:022.590 - 0.057ms returns 0x10000000
T2604 001:022.628 JLINK_ClrBPEx(BPHandle = 0x00000008)
T2604 001:022.661 - 0.046ms returns 0x00
T2604 001:022.698 JLINK_ReadReg(R0)
T2604 001:022.727 - 0.044ms returns 0x00000000
T2604 001:025.212 JLINK_WriteMem(0x10000204, 0x1FC Bytes, ...)
T2604 001:025.273   Data:  99 F8 00 10 18 F8 33 00 01 F0 0D 01 08 42 0C D0 ...
T2604 001:025.348   CPU_WriteMem(508 bytes @ 0x10000204)
T2604 001:029.088 - 3.914ms returns 0x1FC
T2604 001:029.162 JLINK_WriteMem(0x10000400, 0x204 Bytes, ...)
T2604 001:029.196   Data:  98 4B 92 F8 00 C0 98 49 84 45 0B D1 93 F8 00 C0 ...
T2604 001:029.263   CPU_WriteMem(516 bytes @ 0x10000400)
T2604 001:033.007 - 3.884ms returns 0x204
T2604 001:033.083 JLINK_HasError()
T2604 001:033.125 JLINK_WriteReg(R0, 0x00001000)
T2604 001:033.168 - 0.057ms returns 0
T2604 001:033.206 JLINK_WriteReg(R1, 0x00000400)
T2604 001:033.237 - 0.046ms returns 0
T2604 001:033.275 JLINK_WriteReg(R2, 0x10000204)
T2604 001:033.306 - 0.045ms returns 0
T2604 001:033.342 JLINK_WriteReg(R3, 0x00000000)
T2604 001:033.372 - 0.044ms returns 0
T2604 001:033.408 JLINK_WriteReg(R4, 0x00000000)
T2604 001:033.438 - 0.057ms returns 0
T2604 001:033.497 JLINK_WriteReg(R5, 0x00000000)
T2604 001:033.528 - 0.045ms returns 0
T2604 001:033.564 JLINK_WriteReg(R6, 0x00000000)
T2604 001:033.594 - 0.044ms returns 0
T2604 001:033.631 JLINK_WriteReg(R7, 0x00000000)
T2604 001:033.660 - 0.043ms returns 0
T2604 001:033.696 JLINK_WriteReg(R8, 0x00000000)
T2604 001:033.726 - 0.044ms returns 0
T2604 001:033.762 JLINK_WriteReg(R9, 0x100001DC)
T2604 001:033.791 - 0.043ms returns 0
T2604 001:033.827 JLINK_WriteReg(R10, 0x00000000)
T2604 001:033.857 - 0.044ms returns 0
T2604 001:033.893 JLINK_WriteReg(R11, 0x00000000)
T2604 001:033.923 - 0.043ms returns 0
T2604 001:033.959 JLINK_WriteReg(R12, 0x00000000)
T2604 001:033.995 - 0.050ms returns 0
T2604 001:034.031 JLINK_WriteReg(R13 (SP), 0x10000FE0)
T2604 001:034.063 - 0.046ms returns 0
T2604 001:034.099 JLINK_WriteReg(R14, 0x10000001)
T2604 001:034.129 - 0.044ms returns 0
T2604 001:034.165 JLINK_WriteReg(R15 (PC), 0x10000156)
T2604 001:034.195 - 0.044ms returns 0
T2604 001:034.231 JLINK_WriteReg(XPSR, 0x01000000)
T2604 001:034.261 - 0.044ms returns 0
T2604 001:034.297 JLINK_WriteReg(MSP, 0x10000FE0)
T2604 001:034.327 - 0.043ms returns 0
T2604 001:034.362 JLINK_WriteReg(PSP, 0x10000FE0)
T2604 001:034.392 - 0.044ms returns 0
T2604 001:034.428 JLINK_WriteReg(CFBP, 0x00000000)
T2604 001:034.457 - 0.043ms returns 0
T2604 001:034.494 JLINK_SetBPEx(Addr = 0x10000000, Type = 0xFFFFFFF2)
T2604 001:034.529 - 0.049ms returns 0x00000009
T2604 001:034.565 JLINK_Go()
T2604 001:034.608   CPU_WriteMem(4 bytes @ 0xE0002000)
T2604 001:035.390   CPU_ReadMem(4 bytes @ 0xE0001000)
T2604 001:038.835 - 4.316ms
T2604 001:038.929 JLINK_IsHalted()
T2604 001:039.628 - 0.734ms returns FALSE
T2604 001:039.708 JLINK_HasError()
T2604 001:049.028 JLINK_IsHalted()
T2604 001:051.757 - 2.766ms returns TRUE
T2604 001:051.828 JLINK_ReadReg(R15 (PC))
T2604 001:051.867 - 0.054ms returns 0x10000000
T2604 001:051.905 JLINK_ClrBPEx(BPHandle = 0x00000009)
T2604 001:051.937 - 0.046ms returns 0x00
T2604 001:051.974 JLINK_ReadReg(R0)
T2604 001:052.014 - 0.064ms returns 0x00000000
T2604 001:054.174 JLINK_WriteMem(0x10000204, 0x1FC Bytes, ...)
T2604 001:054.228   Data:  DC 01 00 EB 80 01 23 48 00 68 00 EB 41 02 22 49 ...
T2604 001:054.300   CPU_WriteMem(508 bytes @ 0x10000204)
T2604 001:058.352 - 4.233ms returns 0x1FC
T2604 001:058.446 JLINK_WriteMem(0x10000400, 0x204 Bytes, ...)
T2604 001:058.480   Data:  BA 49 0A 78 BA 49 0A 70 80 F8 00 80 B0 4A 10 78 ...
T2604 001:058.556   CPU_WriteMem(516 bytes @ 0x10000400)
T2604 001:062.671 - 4.280ms returns 0x204
T2604 001:062.768 JLINK_HasError()
T2604 001:062.811 JLINK_WriteReg(R0, 0x00001400)
T2604 001:062.857 - 0.060ms returns 0
T2604 001:062.894 JLINK_WriteReg(R1, 0x00000400)
T2604 001:062.925 - 0.045ms returns 0
T2604 001:062.962 JLINK_WriteReg(R2, 0x10000204)
T2604 001:062.992 - 0.044ms returns 0
T2604 001:063.028 JLINK_WriteReg(R3, 0x00000000)
T2604 001:063.057 - 0.043ms returns 0
T2604 001:063.093 JLINK_WriteReg(R4, 0x00000000)
T2604 001:063.124 - 0.044ms returns 0
T2604 001:063.160 JLINK_WriteReg(R5, 0x00000000)
T2604 001:063.190 - 0.044ms returns 0
T2604 001:063.226 JLINK_WriteReg(R6, 0x00000000)
T2604 001:063.257 - 0.045ms returns 0
T2604 001:063.295 JLINK_WriteReg(R7, 0x00000000)
T2604 001:063.325 - 0.045ms returns 0
T2604 001:063.362 JLINK_WriteReg(R8, 0x00000000)
T2604 001:063.396 - 0.048ms returns 0
T2604 001:063.434 JLINK_WriteReg(R9, 0x100001DC)
T2604 001:063.470 - 0.052ms returns 0
T2604 001:063.512 JLINK_WriteReg(R10, 0x00000000)
T2604 001:063.553 - 0.059ms returns 0
T2604 001:063.617 JLINK_WriteReg(R11, 0x00000000)
T2604 001:063.670 - 0.067ms returns 0
T2604 001:063.705 JLINK_WriteReg(R12, 0x00000000)
T2604 001:063.733 - 0.041ms returns 0
T2604 001:063.767 JLINK_WriteReg(R13 (SP), 0x10000FE0)
T2604 001:063.798 - 0.044ms returns 0
T2604 001:063.832 JLINK_WriteReg(R14, 0x10000001)
T2604 001:063.860 - 0.041ms returns 0
T2604 001:063.894 JLINK_WriteReg(R15 (PC), 0x10000156)
T2604 001:063.923 - 0.042ms returns 0
T2604 001:063.968 JLINK_WriteReg(XPSR, 0x01000000)
T2604 001:064.006 - 0.050ms returns 0
T2604 001:064.040 JLINK_WriteReg(MSP, 0x10000FE0)
T2604 001:064.068 - 0.041ms returns 0
T2604 001:064.102 JLINK_WriteReg(PSP, 0x10000FE0)
T2604 001:064.130 - 0.041ms returns 0
T2604 001:064.165 JLINK_WriteReg(CFBP, 0x00000000)
T2604 001:064.193 - 0.041ms returns 0
T2604 001:064.228 JLINK_SetBPEx(Addr = 0x10000000, Type = 0xFFFFFFF2)
T2604 001:064.315 - 0.101ms returns 0x0000000A
T2604 001:064.352 JLINK_Go()
T2604 001:064.397   CPU_WriteMem(4 bytes @ 0xE0002000)
T2604 001:065.372   CPU_ReadMem(4 bytes @ 0xE0001000)
T2604 001:068.939 - 4.647ms
T2604 001:069.055 JLINK_IsHalted()
T2604 001:069.699 - 0.680ms returns FALSE
T2604 001:069.781 JLINK_HasError()
T2604 001:071.693 JLINK_IsHalted()
T2604 001:072.371 - 0.714ms returns FALSE
T2604 001:072.443 JLINK_HasError()
T2604 001:074.677 JLINK_IsHalted()
T2604 001:077.406 - 2.771ms returns TRUE
T2604 001:077.483 JLINK_ReadReg(R15 (PC))
T2604 001:077.522 - 0.054ms returns 0x10000000
T2604 001:077.561 JLINK_ClrBPEx(BPHandle = 0x0000000A)
T2604 001:077.600 - 0.105ms returns 0x00
T2604 001:077.693 JLINK_ReadReg(R0)
T2604 001:077.725 - 0.050ms returns 0x00000000
T2604 001:079.776 JLINK_WriteMem(0x10000204, 0x1FC Bytes, ...)
T2604 001:079.828   Data:  E0 DA 43 49 34 4B DF F8 CC C0 0A 78 9B F8 00 10 ...
T2604 001:079.900   CPU_WriteMem(508 bytes @ 0x10000204)
T2604 001:083.671 - 3.953ms returns 0x1FC
T2604 001:083.777 JLINK_WriteMem(0x10000400, 0x204 Bytes, ...)
T2604 001:083.825   Data:  20 F0 01 00 F8 60 D7 48 90 F8 00 E0 BE F1 32 0F ...
T2604 001:083.915   CPU_WriteMem(516 bytes @ 0x10000400)
T2604 001:087.848 - 4.114ms returns 0x204
T2604 001:087.929 JLINK_HasError()
T2604 001:087.972 JLINK_WriteReg(R0, 0x00001800)
T2604 001:088.016 - 0.059ms returns 0
T2604 001:088.054 JLINK_WriteReg(R1, 0x00000400)
T2604 001:088.085 - 0.046ms returns 0
T2604 001:088.123 JLINK_WriteReg(R2, 0x10000204)
T2604 001:088.153 - 0.045ms returns 0
T2604 001:088.190 JLINK_WriteReg(R3, 0x00000000)
T2604 001:088.220 - 0.044ms returns 0
T2604 001:088.257 JLINK_WriteReg(R4, 0x00000000)
T2604 001:088.287 - 0.044ms returns 0
T2604 001:088.323 JLINK_WriteReg(R5, 0x00000000)
T2604 001:088.353 - 0.044ms returns 0
T2604 001:088.405 JLINK_WriteReg(R6, 0x00000000)
T2604 001:088.425 - 0.029ms returns 0
T2604 001:088.448 JLINK_WriteReg(R7, 0x00000000)
T2604 001:088.468 - 0.028ms returns 0
T2604 001:088.491 JLINK_WriteReg(R8, 0x00000000)
T2604 001:088.510 - 0.028ms returns 0
T2604 001:088.538 JLINK_WriteReg(R9, 0x100001DC)
T2604 001:088.557 - 0.028ms returns 0
T2604 001:088.581 JLINK_WriteReg(R10, 0x00000000)
T2604 001:088.600 - 0.029ms returns 0
T2604 001:088.624 JLINK_WriteReg(R11, 0x00000000)
T2604 001:088.643 - 0.028ms returns 0
T2604 001:088.666 JLINK_WriteReg(R12, 0x00000000)
T2604 001:088.686 - 0.028ms returns 0
T2604 001:088.709 JLINK_WriteReg(R13 (SP), 0x10000FE0)
T2604 001:088.730 - 0.029ms returns 0
T2604 001:088.753 JLINK_WriteReg(R14, 0x10000001)
T2604 001:088.773 - 0.028ms returns 0
T2604 001:088.796 JLINK_WriteReg(R15 (PC), 0x10000156)
T2604 001:088.816 - 0.029ms returns 0
T2604 001:088.839 JLINK_WriteReg(XPSR, 0x01000000)
T2604 001:088.858 - 0.028ms returns 0
T2604 001:088.881 JLINK_WriteReg(MSP, 0x10000FE0)
T2604 001:088.901 - 0.028ms returns 0
T2604 001:088.924 JLINK_WriteReg(PSP, 0x10000FE0)
T2604 001:088.943 - 0.028ms returns 0
T2604 001:088.966 JLINK_WriteReg(CFBP, 0x00000000)
T2604 001:088.985 - 0.028ms returns 0
T2604 001:089.009 JLINK_SetBPEx(Addr = 0x10000000, Type = 0xFFFFFFF2)
T2604 001:089.032 - 0.032ms returns 0x0000000B
T2604 001:089.056 JLINK_Go()
T2604 001:089.086   CPU_WriteMem(4 bytes @ 0xE0002000)
T2604 001:089.639   CPU_ReadMem(4 bytes @ 0xE0001000)
T2604 001:092.599 - 3.572ms
T2604 001:092.653 JLINK_IsHalted()
T2604 001:093.168 - 0.538ms returns FALSE
T2604 001:093.215 JLINK_HasError()
T2604 001:094.589 JLINK_IsHalted()
T2604 001:095.122 - 0.550ms returns FALSE
T2604 001:095.158 JLINK_HasError()
T2604 001:096.585 JLINK_IsHalted()
T2604 001:097.061 - 0.495ms returns FALSE
T2604 001:097.098 JLINK_HasError()
T2604 001:098.813 JLINK_IsHalted()
T2604 001:101.997 - 3.209ms returns TRUE
T2604 001:102.038 JLINK_ReadReg(R15 (PC))
T2604 001:102.056 - 0.023ms returns 0x10000000
T2604 001:102.072 JLINK_ClrBPEx(BPHandle = 0x0000000B)
T2604 001:102.085 - 0.019ms returns 0x00
T2604 001:102.100 JLINK_ReadReg(R0)
T2604 001:102.112 - 0.017ms returns 0x00000000
T2604 001:103.017 JLINK_WriteMem(0x10000204, 0x1FC Bytes, ...)
T2604 001:103.042   Data:  45 D2 68 4B 05 FA 02 F1 DF F8 A0 C1 1A 78 0A 43 ...
T2604 001:103.074   CPU_WriteMem(508 bytes @ 0x10000204)
T2604 001:106.986 - 4.000ms returns 0x1FC
T2604 001:107.039 JLINK_WriteMem(0x10000400, 0x204 Bytes, ...)
T2604 001:107.057   Data:  FD 49 09 68 8A 42 1D D2 40 F0 08 00 30 60 FB 48 ...
T2604 001:107.134   CPU_WriteMem(516 bytes @ 0x10000400)
T2604 001:110.810 - 3.802ms returns 0x204
T2604 001:110.865 JLINK_HasError()
T2604 001:110.888 JLINK_WriteReg(R0, 0x00001C00)
T2604 001:110.912 - 0.032ms returns 0
T2604 001:110.932 JLINK_WriteReg(R1, 0x00000400)
T2604 001:110.949 - 0.024ms returns 0
T2604 001:110.968 JLINK_WriteReg(R2, 0x10000204)
T2604 001:110.985 - 0.024ms returns 0
T2604 001:111.004 JLINK_WriteReg(R3, 0x00000000)
T2604 001:111.020 - 0.023ms returns 0
T2604 001:111.039 JLINK_WriteReg(R4, 0x00000000)
T2604 001:111.054 - 0.023ms returns 0
T2604 001:111.074 JLINK_WriteReg(R5, 0x00000000)
T2604 001:111.090 - 0.023ms returns 0
T2604 001:111.109 JLINK_WriteReg(R6, 0x00000000)
T2604 001:111.124 - 0.023ms returns 0
T2604 001:111.144 JLINK_WriteReg(R7, 0x00000000)
T2604 001:111.159 - 0.023ms returns 0
T2604 001:111.178 JLINK_WriteReg(R8, 0x00000000)
T2604 001:111.194 - 0.023ms returns 0
T2604 001:111.213 JLINK_WriteReg(R9, 0x100001DC)
T2604 001:111.229 - 0.023ms returns 0
T2604 001:111.248 JLINK_WriteReg(R10, 0x00000000)
